!Agilent Technologies,E5071C,MY46107106,A.09.54
!Date: Mon Jan 01 00:19:40 2001
!Data & Calibration Information:
!Freq	S11:SOLT2(ON)	S21:SOLT2(ON)	S12:SOLT2(ON)	S22:SOLT2(ON)
# Hz S dB R 50
300000	-1.095684e-001	-8.482940e+000	-2.321576e+001	-3.867728e+001	-3.186553e+001	-1.756245e+002	-5.431808e-001	-1.048745e+001
30298500	-5.929975e+000	-1.919149e+001	1.653158e+001	1.782186e+002	-3.104796e+001	1.501680e+001	-5.925364e+000	-1.723793e+002
60297000	-5.965993e+000	-5.098117e+001	1.617502e+001	1.649019e+002	-3.063799e+001	2.275490e+001	-5.615609e+000	1.781413e+002
90295500	-6.295764e+000	-7.721963e+001	1.565913e+001	1.532751e+002	-2.843074e+001	2.162584e+001	-5.314795e+000	1.718770e+002
120294000	-6.355859e+000	-9.741415e+001	1.492769e+001	1.462780e+002	-2.761609e+001	1.489538e+001	-4.918612e+000	1.648946e+002
150292500	-6.317959e+000	-1.162204e+002	1.429109e+001	1.396150e+002	-2.701881e+001	7.284146e+000	-4.867031e+000	1.573465e+002
180291000	-6.230011e+000	-1.333012e+002	1.359119e+001	1.334964e+002	-2.594543e+001	-1.414167e+000	-4.655029e+000	1.520053e+002
210289500	-5.996402e+000	-1.486150e+002	1.281416e+001	1.273328e+002	-2.527863e+001	-7.713316e+000	-4.317914e+000	1.456065e+002
240288000	-5.630382e+000	-1.628302e+002	1.181558e+001	1.226468e+002	-2.523900e+001	-1.235466e+001	-4.147986e+000	1.400060e+002
270286500	-5.160804e+000	-1.767925e+002	1.063103e+001	1.189400e+002	-2.405129e+001	-1.836853e+001	-3.783292e+000	1.331711e+002
300285000	-4.624224e+000	1.698918e+002	9.135490e+000	1.175513e+002	-2.361421e+001	-2.472317e+001	-3.327988e+000	1.266154e+002
330283500	-3.956222e+000	1.567707e+002	7.210660e+000	1.199017e+002	-2.312202e+001	-3.143097e+001	-3.130107e+000	1.192575e+002
360282000	-3.212372e+000	1.439212e+002	4.952453e+000	1.325411e+002	-2.249930e+001	-3.695252e+001	-2.455229e+000	1.123756e+002
390280500	-2.237954e+000	1.307956e+002	4.274759e+000	1.615095e+002	-2.163608e+001	-4.372486e+001	-1.881882e+000	1.052079e+002
420279000	-1.164036e+000	1.173974e+002	7.493975e+000	-1.713238e+002	-2.116991e+001	-5.439234e+001	-1.107989e+000	9.700738e+001
450277500	1.721877e-001	1.032747e+002	1.190468e+001	-1.616741e+002	-1.993025e+001	-6.292660e+001	-3.003366e-001	8.809739e+001
480276000	1.965291e+000	8.987082e+001	1.609519e+001	-1.607283e+002	-1.209342e+001	-6.274619e+001	-8.112348e+000	-3.272576e+001
510274500	4.511007e+000	7.080327e+001	2.080166e+001	-1.662590e+002	-1.639124e+001	-8.804474e+001	3.106617e+000	6.518380e+001
540273000	7.606525e+000	4.782780e+001	2.560199e+001	-1.798232e+002	-1.384052e+001	-1.074673e+002	5.588475e+000	4.536299e+001
570271500	1.158564e+001	1.334377e+001	3.091574e+001	1.537745e+002	-1.019017e+001	-1.421494e+002	9.093265e+000	1.166683e+001
600270000	1.690422e+001	-3.277510e+001	3.757150e+001	1.109817e+002	-1.168213e+001	1.248767e+002	4.718206e+000	-7.661232e+001
630268500	9.238040e+000	-1.061036e+002	3.023603e+001	5.134398e+001	-1.398887e+001	1.007759e+002	4.456042e+000	-1.023974e+002
660267000	5.478479e+000	-1.314629e+002	2.702086e+001	3.380676e+001	-1.772249e+001	7.397660e+001	3.974436e-002	-1.301797e+002
690265500	2.917839e+000	-1.505984e+002	2.474939e+001	2.258015e+001	-2.052297e+001	5.256250e+001	-3.571294e+000	-1.519454e+002
720264000	9.244457e-001	-1.670768e+002	2.283444e+001	1.471279e+001	-2.235015e+001	3.347696e+001	-6.037088e+000	-1.732259e+002
750262500	-4.463831e-001	1.790998e+002	2.145692e+001	8.295616e+000	-2.303364e+001	1.906561e+001	-7.971184e+000	1.682118e+002
780261000	-1.513339e+000	1.663662e+002	2.034980e+001	2.890978e+000	-2.384414e+001	6.307020e+000	-8.956302e+000	1.482594e+002
810259500	-2.278788e+000	1.553308e+002	1.946672e+001	-2.177807e+000	-2.394419e+001	-4.978460e+000	-9.415211e+000	1.323536e+002
840258000	-2.692247e+000	1.427361e+002	1.867295e+001	-7.824468e+000	-2.522662e+001	-1.871170e+001	-9.998229e+000	1.163762e+002
870256500	-3.329558e+000	1.333705e+002	1.794189e+001	-1.134758e+001	-2.440058e+001	-2.371639e+001	-9.679168e+000	1.023510e+002
900255000	-3.634261e+000	1.239235e+002	1.739075e+001	-1.508969e+001	-2.454425e+001	-3.197247e+001	-9.647025e+000	9.225617e+001
930253500	-3.937048e+000	1.144301e+002	1.689294e+001	-1.872384e+001	-2.425970e+001	-4.050046e+001	-9.826456e+000	8.272876e+001
960252000	-4.241594e+000	1.054993e+002	1.655054e+001	-2.138167e+001	-2.012638e+001	-1.070115e+002	-2.904542e+000	-5.967681e+000
990250500	-4.192665e+000	9.796489e+001	1.628036e+001	-2.586245e+001	-2.346470e+001	-4.924261e+001	-9.377768e+000	6.151451e+001
1020249000	-4.252928e+000	8.967466e+001	1.608531e+001	-2.927606e+001	-2.328897e+001	-5.551072e+001	-9.297302e+000	5.368326e+001
1050247500	-4.331988e+000	8.189779e+001	1.598063e+001	-3.281407e+001	-2.328709e+001	-6.094584e+001	-9.395954e+000	4.358479e+001
1080246000	-4.262460e+000	7.385393e+001	1.596626e+001	-3.676490e+001	-2.285905e+001	-6.387119e+001	-8.969330e+000	3.451598e+001
1110244500	-4.267160e+000	6.624757e+001	1.600654e+001	-4.048474e+001	-2.273807e+001	-7.113196e+001	-9.062230e+000	2.525145e+001
1140243000	-4.193711e+000	5.871814e+001	1.611080e+001	-4.437414e+001	-2.267690e+001	-7.552536e+001	-9.019217e+000	1.704161e+001
1170241500	-4.072420e+000	5.085664e+001	1.627870e+001	-4.838790e+001	-2.244060e+001	-7.600474e+001	-8.653170e+000	7.229362e+000
1200240000	-3.852046e+000	4.275432e+001	1.655459e+001	-5.265759e+001	-2.183599e+001	-7.899779e+001	-8.294352e+000	-2.040052e+000
1230238500	-3.560268e+000	3.423587e+001	1.690432e+001	-5.658040e+001	-2.115965e+001	-7.982842e+001	-7.862340e+000	-1.315491e+001
1260237000	-3.180871e+000	2.503054e+001	1.741392e+001	-6.061272e+001	-2.062181e+001	-8.269078e+001	-6.854985e+000	-2.483558e+001
1290235500	-2.608394e+000	1.467964e+001	1.812045e+001	-6.492159e+001	-1.992264e+001	-8.416223e+001	-5.395446e+000	-3.686545e+001
1320234000	-1.704765e+000	3.013952e+000	1.909082e+001	-6.928604e+001	-1.888207e+001	-8.314735e+001	-3.892337e+000	-4.647730e+001
1350232500	-1.107883e-001	-1.040633e+001	2.062318e+001	-7.337768e+001	-1.702067e+001	-8.144413e+001	-1.515811e+000	-5.953272e+001
1380231000	2.611475e+000	-2.844743e+001	2.314157e+001	-7.887023e+001	-1.405090e+001	-7.940133e+001	2.452342e+000	-7.379185e+001
1410229500	8.000208e+000	-5.221096e+001	2.802976e+001	-8.797734e+001	-8.458241e+000	-8.473690e+001	8.287022e+000	-9.409532e+001
1440228000	1.764643e+001	-1.450854e+002	4.271120e+001	-9.664777e+001	8.340881e+000	1.689059e+002	2.134718e+001	1.564539e+002
1470226500	6.313809e+000	1.226291e+002	2.371810e+001	1.206652e+002	-1.010459e+001	1.478527e+002	7.854033e+000	1.028129e+002
1500225000	1.703755e+000	1.033515e+002	1.702328e+001	1.198477e+002	-1.392821e+001	1.505079e+002	3.038103e+000	9.236628e+001
1530223500	-4.817812e-001	8.775355e+001	1.281797e+001	1.223469e+002	-1.565384e+001	1.498067e+002	7.078229e-001	8.458134e+001
1560222000	-1.664949e+000	7.496806e+001	9.672549e+000	1.268708e+002	-1.695426e+001	1.505695e+002	-8.472011e-001	7.677071e+001
1590220500	-2.356118e+000	6.448219e+001	7.416247e+000	1.332203e+002	-1.785682e+001	1.481456e+002	-1.876869e+000	7.142903e+001
1620219000	-2.737635e+000	5.559731e+001	6.003351e+000	1.391172e+002	-1.812780e+001	1.445391e+002	-2.586707e+000	6.689157e+001
1650217500	-2.914714e+000	4.800739e+001	5.051546e+000	1.432741e+002	-1.851014e+001	1.420981e+002	-3.066511e+000	6.178301e+001
1680216000	-2.953084e+000	4.121123e+001	4.447531e+000	1.450875e+002	-1.869751e+001	1.379879e+002	-3.315661e+000	5.680830e+001
1710214500	-2.908417e+000	3.504748e+001	4.000527e+000	1.456139e+002	-1.894214e+001	1.349965e+002	-3.749747e+000	5.291286e+001
1740213000	-2.782642e+000	2.919643e+001	3.703519e+000	1.435725e+002	-1.902421e+001	1.307437e+002	-3.853257e+000	4.811894e+001
1770211500	-2.644558e+000	2.340498e+001	3.260528e+000	1.412997e+002	-1.931124e+001	1.272537e+002	-3.966144e+000	4.392548e+001
1800210000	-2.447417e+000	1.798423e+001	2.799538e+000	1.379472e+002	-1.905498e+001	1.246335e+002	-4.173465e+000	4.206087e+001
1830208500	-2.219756e+000	1.248942e+001	2.305011e+000	1.345646e+002	-1.911834e+001	1.191882e+002	-4.253901e+000	4.071493e+001
1860207000	-2.048178e+000	7.228520e+000	1.816105e+000	1.303772e+002	-1.888603e+001	1.142670e+002	-3.920246e+000	3.757528e+001
1890205500	-1.795997e+000	1.942870e+000	1.300792e+000	1.251869e+002	-1.905048e+001	1.079130e+002	-3.558349e+000	3.381387e+001
1920204000	-1.513478e+000	-3.689182e+000	7.124127e-001	1.195631e+002	-1.898571e+001	1.008484e+002	-3.187698e+000	3.046074e+001
1950202500	-1.284931e+000	-9.199041e+000	-1.901485e-001	1.128889e+002	-1.884811e+001	9.439914e+001	-3.134150e+000	2.595986e+001
1980201000	-1.040865e+000	-1.488726e+001	-1.059962e+000	1.048667e+002	-1.887758e+001	8.725281e+001	-2.831507e+000	2.098250e+001
2010199500	-8.787811e-001	-2.131538e+001	-2.594703e+000	9.665986e+001	-1.902008e+001	8.084155e+001	-2.558150e+000	1.820181e+001
2040198000	-7.679269e-001	-2.857378e+001	-4.753297e+000	8.838084e+001	-1.867118e+001	7.009043e+001	-2.263008e+000	1.484942e+001
2070196500	-7.168709e-001	-3.243420e+001	-5.740397e+000	9.192817e+001	-1.960655e+001	6.707190e+001	-1.925728e+000	8.524738e+000
2100195000	-6.057834e-001	-3.910591e+001	-8.378229e+000	8.569525e+001	-1.978970e+001	6.027981e+001	-1.847326e+000	3.689119e+000
2130193500	-5.746446e-001	-4.449103e+001	-1.086820e+001	9.112657e+001	-1.979513e+001	5.331526e+001	-1.768505e+000	-4.236402e-001
2160192000	-5.217888e-001	-5.044993e+001	-1.446870e+001	9.281217e+001	-2.020820e+001	4.624230e+001	-1.560096e+000	-4.567547e+000
2190190500	-4.984847e-001	-5.601601e+001	-1.840092e+001	1.083018e+002	-2.032338e+001	4.113312e+001	-1.513143e+000	-9.997395e+000
2220189000	-4.129239e-001	-6.161103e+001	-2.018531e+001	1.437890e+002	-2.115257e+001	3.489227e+001	-1.482225e+000	-1.455874e+001
2250187500	-4.157538e-001	-6.725550e+001	-1.743677e+001	1.774056e+002	-2.127037e+001	2.904289e+001	-1.383662e+000	-1.881499e+001
2280186000	-3.139238e-001	-7.178755e+001	-1.287847e+001	-1.750928e+002	-2.140162e+001	2.223182e+001	-1.247840e+000	-2.279740e+001
2310184500	-3.126894e-001	-7.978354e+001	-1.207763e+001	-1.647663e+002	-2.174348e+001	1.617584e+001	-1.385573e+000	-2.765956e+001
2340183000	-3.303181e-001	-8.518531e+001	-9.842986e+000	-1.614573e+002	-2.207866e+001	1.033243e+001	-1.357905e+000	-3.231017e+001
2370181500	-2.867741e-001	-9.133806e+001	-7.654053e+000	-1.658602e+002	-2.279441e+001	5.243982e+000	-1.395264e+000	-3.648327e+001
2400180000	-2.112289e-001	-9.749614e+001	-6.294399e+000	-1.696531e+002	-2.272440e+001	9.060561e-001	-1.316755e+000	-3.977805e+001
2430178500	-1.946534e-001	-1.038638e+002	-5.112365e+000	-1.740682e+002	-2.310693e+001	-8.464098e+000	-1.331615e+000	-4.416178e+001
2460177000	-1.371561e-001	-1.106294e+002	-3.857742e+000	-1.788452e+002	-2.333649e+001	-1.619980e+001	-1.290083e+000	-4.782992e+001
2490175500	-9.123453e-002	-1.177166e+002	-2.882449e+000	1.761902e+002	-2.352288e+001	-1.989740e+001	-1.339278e+000	-5.163759e+001
2520174000	-8.115749e-002	-1.253629e+002	-2.051556e+000	1.700875e+002	-2.383919e+001	-2.773432e+001	-1.312835e+000	-5.545074e+001
2550172500	-5.247396e-002	-1.336731e+002	-1.171530e+000	1.637131e+002	-2.423461e+001	-3.587961e+001	-1.401937e+000	-6.005000e+001
2580171000	-1.287256e-001	-1.417239e+002	-4.976886e-001	1.578490e+002	-2.451982e+001	-4.486100e+001	-1.355356e+000	-6.349905e+001
2610169500	-1.721246e-001	-1.500784e+002	1.275702e-001	1.511525e+002	-2.500037e+001	-4.992371e+001	-1.478218e+000	-6.725543e+001
2640168000	-2.747544e-001	-1.586318e+002	6.589100e-001	1.441841e+002	-2.562979e+001	-6.128852e+001	-1.460500e+000	-7.155545e+001
2670166500	-3.854739e-001	-1.674071e+002	1.144451e+000	1.376626e+002	-2.626986e+001	-6.821812e+001	-1.565603e+000	-7.562261e+001
2700165000	-5.024778e-001	-1.765527e+002	1.470639e+000	1.311124e+002	-2.649574e+001	-7.470293e+001	-1.612741e+000	-7.848162e+001
2730163500	-6.349864e-001	1.743965e+002	1.911540e+000	1.246070e+002	-2.693015e+001	-8.100052e+001	-1.762140e+000	-8.221917e+001
2760162000	-7.293682e-001	1.643101e+002	2.201636e+000	1.173012e+002	-2.797137e+001	-9.735515e+001	-1.890818e+000	-8.667742e+001
2790160500	-8.419235e-001	1.547500e+002	2.468584e+000	1.107393e+002	-2.877607e+001	-1.059196e+002	-1.911399e+000	-9.079269e+001
2820159000	-9.896023e-001	1.447580e+002	2.696415e+000	1.040945e+002	-2.911969e+001	-1.133636e+002	-2.048992e+000	-9.372010e+001
2850157500	-1.169573e+000	1.348095e+002	2.937307e+000	9.755094e+001	-2.891728e+001	-1.205733e+002	-2.089807e+000	-9.849698e+001
2880156000	-1.134881e+000	1.255382e+002	3.490469e+000	8.984145e+001	-3.172368e+001	-1.348286e+002	-2.212190e+000	-1.013248e+002
2910154500	-1.031017e+000	1.132237e+002	3.230272e+000	7.858693e+001	-3.349469e+001	-1.436550e+002	-2.225747e+000	-1.044933e+002
2940153000	-1.245202e+000	1.027781e+002	3.072121e+000	7.213839e+001	-3.458645e+001	-1.525146e+002	-2.365741e+000	-1.081579e+002
2970151500	-1.315672e+000	9.185969e+001	2.987359e+000	6.542808e+001	-3.526277e+001	-1.630802e+002	-2.612183e+000	-1.122729e+002
3000150000	-1.389060e+000	8.178798e+001	2.894871e+000	5.848800e+001	-3.599240e+001	1.743091e+002	-2.716894e+000	-1.163332e+002
3030148500	-1.481421e+000	7.192702e+001	2.812154e+000	5.182348e+001	-3.625104e+001	1.721654e+002	-2.726262e+000	-1.194711e+002
3060147000	-1.568518e+000	6.198990e+001	2.631369e+000	4.495965e+001	-3.878046e+001	1.595634e+002	-2.803209e+000	-1.232372e+002
3090145500	-1.613891e+000	5.261161e+001	2.367797e+000	3.818902e+001	-4.094279e+001	1.348523e+002	-2.988728e+000	-1.273110e+002
3120144000	-1.635098e+000	4.359867e+001	2.219422e+000	3.171517e+001	-3.719063e+001	1.230815e+002	-2.925309e+000	-1.313945e+002
3150142500	-1.657149e+000	3.523729e+001	1.937811e+000	2.583131e+001	-4.008933e+001	9.380090e+001	-3.093316e+000	-1.343045e+002
3180141000	-1.652356e+000	2.680866e+001	1.747123e+000	1.907500e+001	-4.028249e+001	7.266022e+001	-3.295641e+000	-1.384245e+002
3210139500	-1.647582e+000	1.900241e+001	1.419465e+000	1.278752e+001	-3.860925e+001	6.693160e+001	-3.591247e+000	-1.443334e+002
3240138000	-1.671585e+000	1.139278e+001	1.171360e+000	7.513923e+000	-3.758984e+001	5.194439e+001	-3.520248e+000	-1.475234e+002
3270136500	-1.653851e+000	4.678662e+000	9.355451e-001	1.560825e+000	-3.769834e+001	3.590706e+001	-3.594862e+000	-1.515168e+002
3300135000	-1.640090e+000	-2.187039e+000	5.888441e-001	-3.977599e+000	-3.663023e+001	3.958669e+001	-3.713781e+000	-1.552875e+002
3330133500	-1.628084e+000	-8.250535e+000	2.319198e-001	-9.474509e+000	-3.808488e+001	5.625432e+000	-4.031674e+000	-1.592254e+002
3360132000	-1.632100e+000	-1.504247e+001	-4.623542e-002	-1.492572e+001	-3.821814e+001	1.307998e+001	-4.072016e+000	-1.646677e+002
3390130500	-1.592854e+000	-2.075618e+001	-3.723043e-001	-2.007279e+001	-3.554759e+001	6.108100e+000	-4.315933e+000	-1.681756e+002
3420129000	-1.574963e+000	-2.647328e+001	-7.650239e-001	-2.549491e+001	-3.681503e+001	3.678275e+000	-4.589201e+000	-1.727796e+002
3450127500	-1.586978e+000	-3.196596e+001	-1.017812e+000	-2.964850e+001	-3.631414e+001	-1.991264e+001	-4.780062e+000	-1.784952e+002
3480126000	-1.557842e+000	-3.715022e+001	-1.317367e+000	-3.398574e+001	-3.693000e+001	-9.408378e+000	-4.735603e+000	1.769753e+002
3510124500	-1.530749e+000	-4.210553e+001	-1.338338e+000	-4.317188e+001	-3.635660e+001	-2.578680e+001	-4.889405e+000	1.717423e+002
3540123000	-1.524276e+000	-4.690383e+001	-1.816126e+000	-4.674706e+001	-3.769268e+001	-1.823821e+001	-5.201640e+000	1.665469e+002
3570121500	-1.501449e+000	-5.148262e+001	-2.195550e+000	-5.210445e+001	-3.757980e+001	-2.964425e+001	-5.467588e+000	1.619393e+002
3600120000	-1.482758e+000	-5.616240e+001	-2.560579e+000	-5.815107e+001	-3.596745e+001	-4.499838e+001	-5.656567e+000	1.556822e+002
3630118500	-1.516276e+000	-6.062549e+001	-2.954705e+000	-6.242866e+001	-3.582467e+001	-4.187998e+001	-5.856843e+000	1.513376e+002
3660117000	-1.478611e+000	-6.518880e+001	-3.245558e+000	-6.779493e+001	-3.623288e+001	-4.894206e+001	-6.234201e+000	1.435078e+002
3690115500	-1.441455e+000	-6.947061e+001	-3.799002e+000	-7.367567e+001	-3.879076e+001	-4.429026e+001	-6.259592e+000	1.379703e+002
3720114000	-1.455170e+000	-7.332759e+001	-4.230143e+000	-7.818296e+001	-3.747627e+001	-5.778642e+001	-6.501109e+000	1.323354e+002
3750112500	-1.440233e+000	-7.725911e+001	-4.848377e+000	-8.432554e+001	-3.600848e+001	-6.274405e+001	-6.859251e+000	1.249388e+002
3780111000	-1.401025e+000	-8.109604e+001	-5.241845e+000	-8.882256e+001	-3.658300e+001	-7.844472e+001	-7.119536e+000	1.196267e+002
3810109500	-1.413364e+000	-8.510021e+001	-5.706793e+000	-9.381527e+001	-3.780776e+001	-6.862891e+001	-7.480177e+000	1.136765e+002
3840108000	-1.426482e+000	-8.896719e+001	-6.405296e+000	-9.893400e+001	-3.844816e+001	-9.558121e+001	-7.847601e+000	1.054856e+002
3870106500	-1.383109e+000	-9.279928e+001	-6.713565e+000	-1.035551e+002	-4.122117e+001	-7.735022e+001	-7.759831e+000	9.704262e+001
3900105000	-1.377600e+000	-9.656441e+001	-7.609069e+000	-1.083015e+002	-3.933436e+001	-8.935812e+001	-7.804676e+000	9.212764e+001
3930103500	-1.369878e+000	-1.005270e+002	-8.248171e+000	-1.145465e+002	-4.025203e+001	-8.483986e+001	-8.351384e+000	8.533845e+001
3960102000	-1.341226e+000	-1.040510e+002	-8.957817e+000	-1.183253e+002	-4.167398e+001	-8.208989e+001	-8.728330e+000	7.679860e+001
3990100500	-1.377819e+000	-1.076100e+002	-9.765823e+000	-1.234168e+002	-4.404298e+001	-9.756291e+001	-8.555785e+000	6.926685e+001
4020099000	-1.365332e+000	-1.113118e+002	-1.083075e+001	-1.287058e+002	-4.379482e+001	-7.463622e+001	-8.844138e+000	6.390152e+001
4050097500	-1.352293e+000	-1.150064e+002	-1.211272e+001	-1.325872e+002	-5.182157e+001	-9.757927e+001	-9.819446e+000	5.431861e+001
4080096000	-1.355013e+000	-1.188675e+002	-1.302268e+001	-1.391804e+002	-4.647559e+001	-7.771952e+001	-9.250444e+000	4.546060e+001
4110094500	-1.318350e+000	-1.223451e+002	-1.467625e+001	-1.410517e+002	-5.314933e+001	3.500353e+001	-9.034771e+000	3.868057e+001
4140093000	-1.333038e+000	-1.262373e+002	-1.620248e+001	-1.459226e+002	-4.795461e+001	1.955840e+000	-9.488144e+000	3.351083e+001
4170091500	-1.324022e+000	-1.297972e+002	-1.886167e+001	-1.453592e+002	-4.354279e+001	2.699627e+001	-1.030230e+001	2.423934e+001
4200090000	-1.307599e+000	-1.335190e+002	-2.157504e+001	-1.483597e+002	-4.020044e+001	-1.033281e+001	-9.862730e+000	1.543430e+001
4230088500	-1.336125e+000	-1.375504e+002	-2.619332e+001	-1.379857e+002	-3.935566e+001	6.540776e+000	-1.002907e+001	9.999548e+000
4260087000	-1.351418e+000	-1.416086e+002	-3.210918e+001	-9.803832e+001	-3.701102e+001	-8.970247e-001	-1.047457e+001	1.951061e+000
4290085500	-1.379966e+000	-1.452574e+002	-2.697750e+001	-3.591181e+001	-3.563716e+001	-7.726523e+000	-1.047135e+001	-8.469904e+000
4320084000	-1.387237e+000	-1.493083e+002	-2.121855e+001	-2.857058e+001	-3.392174e+001	-2.167093e+001	-1.037992e+001	-1.265138e+001
4350082500	-1.407356e+000	-1.534213e+002	-1.813916e+001	-3.115217e+001	-3.286036e+001	-1.890275e+001	-1.095168e+001	-1.549757e+001
4380081000	-1.418522e+000	-1.576650e+002	-1.517782e+001	-3.060118e+001	-3.159915e+001	-1.568559e+001	-1.132550e+001	-2.434437e+001
4410079500	-1.460126e+000	-1.621143e+002	-1.361566e+001	-3.599676e+001	-2.937206e+001	-2.904027e+001	-1.160094e+001	-3.353478e+001
4440078000	-1.536305e+000	-1.664358e+002	-1.181037e+001	-4.238887e+001	-2.823534e+001	-3.010073e+001	-1.185839e+001	-3.819828e+001
4470076500	-1.593208e+000	-1.709328e+002	-1.044835e+001	-4.806894e+001	-2.694842e+001	-4.251467e+001	-1.276729e+001	-4.403456e+001
4500075000	-1.721148e+000	-1.751646e+002	-9.418282e+000	-5.651897e+001	-2.521533e+001	-5.751754e+001	-1.356309e+001	-4.982657e+001
4530073500	-1.876842e+000	-1.791970e+002	-8.675248e+000	-6.576597e+001	-2.501771e+001	-6.873895e+001	-1.445737e+001	-5.233852e+001
4560072000	-2.003955e+000	1.771538e+002	-8.551366e+000	-7.432799e+001	-2.463652e+001	-8.522687e+001	-1.529954e+001	-3.986272e+001
